1



                                 *********************************************

                                    NUMERICAL ELECTROMAGNETICS CODE (NEC-2D)

                                 *********************************************




                                     - - - - COMMENTS - - - -


                          Dipole in free space, converted with 4nec2 on 29-Mar-06 22:08              
                          	Dipole1                                                                   
                          This is a plain dipole in free space, about the simplest                   
                          antenna you're likely to model.                                            
                          The frequency is 299.7+ MHz, at which a wavelength is one                  
                          meter. The antenna dimensions, in meters, are therefore                    
                          also the dimensions in wavelengths. Note that this antenna,                
                          exactly a half wavelength long, is greater than a resonant                 
                          length, as indicated by the positive feedpoint reactance.                  
                          A resonant "half-wave" antenna is somewhat shorter than 0.5                
                          wavelength, the amount depending on its diameter.                          
                                                                                                     




                                 - - - STRUCTURE SPECIFICATION - - -

                                     COORDINATES MUST BE INPUT IN
                                     METERS OR BE SCALED TO METERS
                                     BEFORE STRUCTURE INPUT IS ENDED


  WIRE                                                                               NO. OF    FIRST  LAST     TAG
  NO.        X1         Y1         Z1          X2         Y2         Z2      RADIUS   SEG.     SEG.   SEG.     NO.
     1    0.00000   -0.25000    0.00000     0.00000    0.25000    0.00000    0.00050     11        1    11       1
     2   -0.00051    0.00000 9901.00000     0.00051    0.00000 9901.00000    0.00003      1       12    12    9901

   TOTAL SEGMENTS USED=   12     NO. SEG. IN A SYMMETRIC CELL=   12     SYMMETRY FLAG=  0


         - MULTIPLE WIRE JUNCTIONS -
 JUNCTION    SEGMENTS  (- FOR END 1, + FOR END 2)
  NONE




                                 - - - - SEGMENTATION DATA - - - -

                                        COORDINATES IN METERS

                         I+ AND I- INDICATE THE SEGMENTS BEFORE AND AFTER I


  SEG.   COORDINATES OF SEG. CENTER     SEG.     ORIENTATION ANGLES    WIRE    CONNECTION DATA   TAG
  NO.       X         Y         Z       LENGTH     ALPHA     BETA      RADIUS    I-   I    I+    NO.
     1   0.00000  -0.22727   0.00000   0.04545    0.00000  90.00000   0.00050     0    1    2      1
     2   0.00000  -0.18182   0.00000   0.04545    0.00000  90.00000   0.00050     1    2    3      1
     3   0.00000  -0.13636   0.00000   0.04545    0.00000  90.00000   0.00050     2    3    4      1
     4   0.00000  -0.09091   0.00000   0.04545    0.00000  90.00000   0.00050     3    4    5      1
     5   0.00000  -0.04545   0.00000   0.04545    0.00000  90.00000   0.00050     4    5    6      1
     6   0.00000   0.00000   0.00000   0.04545    0.00000  90.00000   0.00050     5    6    7      1
     7   0.00000   0.04545   0.00000   0.04545    0.00000  90.00000   0.00050     6    7    8      1
     8   0.00000   0.09091   0.00000   0.04545    0.00000  90.00000   0.00050     7    8    9      1
     9   0.00000   0.13636   0.00000   0.04545    0.00000  90.00000   0.00050     8    9   10      1
    10   0.00000   0.18182   0.00000   0.04545    0.00000  90.00000   0.00050     9   10   11      1
    11   0.00000   0.22727   0.00000   0.04545    0.00000  90.00000   0.00050    10   11    0      1
    12   0.00000   0.000009901.00000   0.00102    0.00000   0.00000   0.00003     0   12    0   9901






 ***** DATA CARD NO.  1   EX   0  9901     1     0  0.00000E+00  1.00000E+00  0.00000E+00  0.00000E+00  0.00000E+00  0.00000E+00
 ***** DATA CARD NO.  2   GN  -1     0     0     0  0.00000E+00  0.00000E+00  0.00000E+00  0.00000E+00  0.00000E+00  0.00000E+00
 ***** DATA CARD NO.  3   FR   0     1     0     0  2.99790E+02  0.00000E+00  0.00000E+00  0.00000E+00  0.00000E+00  0.00000E+00
 ***** DATA CARD NO.  4   NT ***     1     1     6  0.00000E+00  0.00000E+00  0.00000E+00  1.00000E+00  0.00000E+00  0.00000E+00
 ***** DATA CARD NO.  5   RP   0    37    73  1003 -1.80000E+02  0.00000E+00  5.00000E+00  5.00000E+00  0.00000E+00  0.00000E+00




                                 - - - - - - FREQUENCY - - - - - -

                                    FREQUENCY= 2.9979E+02 MHZ
                                    WAVELENGTH= 1.0000E+00 METERS




                    APPROXIMATE INTEGRATION EMPLOYED FOR SEGMENTS MORE THAN   1.000 WAVELENGTHS APART



                               - - - STRUCTURE IMPEDANCE LOADING - - -

                                   THIS STRUCTURE IS NOT LOADED



                                  - - - ANTENNA ENVIRONMENT - - -

                                            FREE SPACE



                                - - - MATRIX TIMING - - -

                        FILL=    0.000 SEC.,  FACTOR=    0.000 SEC.



                                            - - - NETWORK DATA - - -

      - FROM -    - TO -                          -  -  ADMITTANCE MATRIX ELEMENTS (MHOS)  -  -
      TAG  SEG.   TAG  SEG.             (ONE,ONE)                   (ONE,TWO)                   (TWO,TWO)
      NO.   NO.   NO.   NO.        REAL          IMAG.         REAL          IMAG.         REAL          IMAG.
     9901    12     1     6     0.0000E+00    0.0000E+00    0.0000E+00    1.0000E+00    0.0000E+00    0.0000E+00           



                           - - - STRUCTURE EXCITATION DATA AT NETWORK CONNECTION POINTS - - -

   TAG   SEG.    VOLTAGE (VOLTS)         CURRENT (AMPS)         IMPEDANCE (OHMS)        ADMITTANCE (MHOS)      POWER
   NO.   NO.    REAL        IMAG.       REAL        IMAG.       REAL        IMAG.       REAL        IMAG.     (WATTS)
     1     6 8.17474E+01 4.59947E+01 1.00000E+00-8.88208E-16 8.17474E+01 4.59947E+01 9.29143E-03-5.22777E-03 4.08737E+01
  9901    12 0.00000E+00 1.00000E+00-5.16603E-06 1.49532E-14 5.60298E-04-1.93572E+05 1.49532E-14 5.16603E-06 7.47659E-15



                                          - - - ANTENNA INPUT PARAMETERS - - -

   TAG   SEG.    VOLTAGE (VOLTS)         CURRENT (AMPS)         IMPEDANCE (OHMS)        ADMITTANCE (MHOS)      POWER
   NO.   NO.    REAL        IMAG.       REAL        IMAG.       REAL        IMAG.       REAL        IMAG.     (WATTS)
  9901    12 0.00000E+00 1.00000E+00-4.59947E+01 8.17474E+01 9.29143E-03-5.22777E-03 8.17474E+01 4.59947E+01 4.08737E+01



                             - - - CURRENTS AND LOCATION - - -

                                 DISTANCES IN WAVELENGTHS


  SEG.  TAG    COORD. OF SEG. CENTER     SEG.            - - - CURRENT (AMPS) - - -
  NO.   NO.     X        Y        Z      LENGTH     REAL        IMAG.       MAG.        PHASE
     1    1   0.0000  -0.2273   0.0000  0.04545   1.8018E-01 -1.9084E-02  1.8119E-01   -6.046
     2    1   0.0000  -0.1818   0.0000  0.04545   4.7278E-01 -4.3281E-02  4.7475E-01   -5.231
     3    1   0.0000  -0.1364   0.0000  0.04545   7.0765E-01 -5.3010E-02  7.0963E-01   -4.284
     4    1   0.0000  -0.0909   0.0000  0.04545   8.7987E-01 -4.8261E-02  8.8119E-01   -3.140
     5    1   0.0000  -0.0455   0.0000  0.04545   9.7810E-01 -2.7660E-02  9.7849E-01   -1.620
     6    1   0.0000   0.0000   0.0000  0.04545   1.0000E+00 -8.8821E-16  1.0000E+00    0.000
     7    1   0.0000   0.0455   0.0000  0.04545   9.7810E-01 -2.7660E-02  9.7849E-01   -1.620
     8    1   0.0000   0.0909   0.0000  0.04545   8.7987E-01 -4.8261E-02  8.8119E-01   -3.140
     9    1   0.0000   0.1364   0.0000  0.04545   7.0765E-01 -5.3010E-02  7.0963E-01   -4.284
    10    1   0.0000   0.1818   0.0000  0.04545   4.7278E-01 -4.3281E-02  4.7475E-01   -5.231
    11    1   0.0000   0.2273   0.0000  0.04545   1.8018E-01 -1.9084E-02  1.8119E-01   -6.046
    12 9901   0.0000   0.00009900.6701  0.00102  -5.1660E-06  1.4953E-14  5.1660E-06  180.000



                                        - - - POWER BUDGET - - -

                                           INPUT POWER   = 4.0874E+01 WATTS
                                           RADIATED POWER= 4.0874E+01 WATTS
                                           STRUCTURE LOSS= 0.0000E+00 WATTS
                                           NETWORK LOSS  = 1.4211E-14 WATTS
                                           EFFICIENCY    = 100.00 PERCENT



                                                - - - RADIATION PATTERNS - - -

  - - ANGLES - -           - POWER GAINS -       - - - POLARIZATION - - -    - - - E(THETA) - - -    - - - E(PHI) - - -
  THETA     PHI        VERT.   HOR.    TOTAL      AXIAL     TILT   SENSE     MAGNITUDE    PHASE      MAGNITUDE    PHASE 
 DEGREES  DEGREES       DB      DB      DB        RATIO     DEG.              VOLTS/M    DEGREES      VOLTS/M    DEGREES
 -180.00     0.00    -157.28    2.16    2.16    0.00000   -90.00  LINEAR    6.77465E-07    28.75    6.34887E+01   -92.93
 -175.00     0.00    -157.31    2.16    2.16    0.00000    90.00  LINEAR    6.74887E-07   -88.24    6.34887E+01   -92.93
 -170.00     0.00    -157.41    2.16    2.16    0.00000    90.00  LINEAR    6.67172E-07   177.58    6.34887E+01   -92.93
 -165.00     0.00    -157.58    2.16    2.16    0.00000   -90.00  LINEAR    6.54381E-07   157.32    6.34887E+01   -92.93
 -160.00     0.00    -157.82    2.16    2.16    0.00000   -90.00  LINEAR    6.36608E-07    58.79    6.34887E+01   -92.93
 -155.00     0.00    -158.13    2.16    2.16    0.00000    90.00  LINEAR    6.13991E-07  -109.60    6.34887E+01   -92.93
 -150.00     0.00    -158.52    2.16    2.16    0.00000    90.00  LINEAR    5.86701E-07  -173.47    6.34887E+01   -92.93
 -145.00     0.00    -159.01    2.16    2.16    0.00000    90.00  LINEAR    5.54946E-07  -145.51    6.34887E+01   -92.93
 -140.00     0.00    -159.59    2.16    2.16    0.00000   -90.00  LINEAR    5.18968E-07   142.79    6.34887E+01   -92.93
 -135.00     0.00    -160.29    2.16    2.16    0.00000    90.00  LINEAR    4.79040E-07   -29.16    6.34887E+01   -92.93
 -130.00     0.00    -161.11    2.16    2.16    0.00000    90.00  LINEAR    4.35466E-07  -100.12    6.34887E+01   -92.93
 -125.00     0.00    -162.10    2.16    2.16    0.00000    90.00  LINEAR    3.88577E-07   -14.80    6.34887E+01   -92.93
 -120.00     0.00    -163.30    2.16    2.16    0.00000   -90.00  LINEAR    3.38732E-07   149.37    6.34887E+01   -92.93
 -115.00     0.00    -164.76    2.16    2.16    0.00000    90.00  LINEAR    2.86309E-07  -163.44    6.34887E+01   -92.93
 -110.00     0.00    -166.59    2.16    2.16    0.00000    90.00  LINEAR    2.31706E-07  -172.30    6.34887E+01   -92.93
 -105.00     0.00    -169.02    2.16    2.16    0.00000   -90.00  LINEAR    1.75341E-07    96.48    6.34887E+01   -92.93
 -100.00     0.00    -172.48    2.16    2.16    0.00000    90.00  LINEAR    1.17640E-07  -174.00    6.34887E+01   -92.93
  -95.00     0.00    -178.47    2.16    2.16    0.00000    90.00  LINEAR    5.90449E-08   -54.09    6.34887E+01   -92.93
  -90.00     0.00    -999.99    2.16    2.16    0.00000    90.00  LINEAR    3.45738E-18   -90.00    6.34887E+01   -92.93
  -85.00     0.00    -178.47    2.16    2.16    0.00000   -90.00  LINEAR    5.90449E-08    54.09    6.34887E+01   -92.93
  -80.00     0.00    -172.48    2.16    2.16    0.00000   -90.00  LINEAR    1.17640E-07   174.00    6.34887E+01   -92.93
  -75.00     0.00    -169.02    2.16    2.16    0.00000    90.00  LINEAR    1.75341E-07   -96.48    6.34887E+01   -92.93
  -70.00     0.00    -166.59    2.16    2.16    0.00000   -90.00  LINEAR    2.31706E-07   172.30    6.34887E+01   -92.93
  -65.00     0.00    -164.76    2.16    2.16    0.00000   -90.00  LINEAR    2.86309E-07   163.44    6.34887E+01   -92.93
  -60.00     0.00    -163.30    2.16    2.16    0.00000    90.00  LINEAR    3.38732E-07  -149.37    6.34887E+01   -92.93
  -55.00     0.00    -162.10    2.16    2.16    0.00000   -90.00  LINEAR    3.88577E-07    14.80    6.34887E+01   -92.93
  -50.00     0.00    -161.11    2.16    2.16    0.00000   -90.00  LINEAR    4.35466E-07   100.12    6.34887E+01   -92.93
  -45.00     0.00    -160.29    2.16    2.16    0.00000   -90.00  LINEAR    4.79040E-07    29.16    6.34887E+01   -92.93
  -40.00     0.00    -159.59    2.16    2.16    0.00000    90.00  LINEAR    5.18968E-07  -142.79    6.34887E+01   -92.93
  -35.00     0.00    -159.01    2.16    2.16    0.00000   -90.00  LINEAR    5.54946E-07   145.51    6.34887E+01   -92.93
  -30.00     0.00    -158.52    2.16    2.16    0.00000   -90.00  LINEAR    5.86701E-07   173.47    6.34887E+01   -92.93
  -25.00     0.00    -158.13    2.16    2.16    0.00000   -90.00  LINEAR    6.13991E-07   109.60    6.34887E+01   -92.93
  -20.00     0.00    -157.82    2.16    2.16    0.00000    90.00  LINEAR    6.36608E-07   -58.79    6.34887E+01   -92.93
  -15.00     0.00    -157.58    2.16    2.16    0.00000    90.00  LINEAR    6.54381E-07  -157.32    6.34887E+01   -92.93
  -10.00     0.00    -157.41    2.16    2.16    0.00000    90.00  LINEAR    6.67172E-07  -177.58    6.34887E+01   -92.93
   -5.00     0.00    -157.31    2.16    2.16    0.00000   -90.00  LINEAR    6.74887E-07    88.24    6.34887E+01   -92.93
    0.00     0.00    -157.28    2.16    2.16    0.00000    90.00  LINEAR    6.77465E-07   -28.75    6.34887E+01   -92.93
 -180.00     5.00     -19.03    2.13    2.16    0.00000   -85.00  LINEAR    5.53341E+00    87.07    6.32471E+01   -92.93
 -175.00     5.00     -19.07    2.13    2.16    0.00000   -85.02  LINEAR    5.51227E+00    87.07    6.32462E+01   -92.93
 -170.00     5.00     -19.17    2.13    2.16    0.00000   -85.08  LINEAR    5.44903E+00    87.07    6.32435E+01   -92.93
 -165.00     5.00     -19.34    2.13    2.16    0.00000   -85.17  LINEAR    5.34419E+00    87.07    6.32392E+01   -92.93
 -160.00     5.00     -19.58    2.13    2.16    0.00000   -85.30  LINEAR    5.19856E+00    87.07    6.32332E+01   -92.93
 -155.00     5.00     -19.89    2.12    2.15    0.00000   -85.47  LINEAR    5.01328E+00    87.07    6.32259E+01   -92.93
 -150.00     5.00     -20.29    2.12    2.15    0.00000   -85.67  LINEAR    4.78982E+00    87.07    6.32174E+01   -92.93
 -145.00     5.00     -20.77    2.12    2.14    0.00000   -85.90  LINEAR    4.52990E+00    87.07    6.32080E+01   -92.93
 -140.00     5.00     -21.35    2.12    2.14    0.00000   -86.17  LINEAR    4.23554E+00    87.07    6.31980E+01   -92.93
 -135.00     5.00     -22.05    2.12    2.14    0.00000   -86.46  LINEAR    3.90903E+00    87.07    6.31876E+01   -92.93
 -130.00     5.00     -22.88    2.12    2.13    0.00000   -86.78  LINEAR    3.55288E+00    87.07    6.31773E+01   -92.93
 -125.00     5.00     -23.87    2.12    2.13    0.00000   -87.13  LINEAR    3.16983E+00    87.07    6.31673E+01   -92.93
 -120.00     5.00     -25.07    2.12    2.12    0.00000   -87.50  LINEAR    2.76280E+00    87.07    6.31579E+01   -92.93
 -115.00     5.00     -26.53    2.11    2.12    0.00000   -87.88  LINEAR    2.33491E+00    87.07    6.31494E+01   -92.93
 -110.00     5.00     -28.37    2.11    2.12    0.00000   -88.29  LINEAR    1.88939E+00    87.07    6.31421E+01   -92.93
 -105.00     5.00     -30.79    2.11    2.11    0.00000   -88.70  LINEAR    1.42964E+00    87.07    6.31361E+01   -92.93
 -100.00     5.00     -34.26    2.11    2.11    0.00000   -89.13  LINEAR    9.59113E-01    87.07    6.31318E+01   -92.93
  -95.00     5.00     -40.24    2.11    2.11    0.00000   -89.56  LINEAR    4.81368E-01    87.07    6.31291E+01   -92.93
  -90.00     5.00    -999.99    2.11    2.11    0.00000   -90.00  LINEAR    2.81861E-11    87.07    6.31282E+01   -92.93
  -85.00     5.00     -40.24    2.11    2.11    0.00000    89.56  LINEAR    4.81368E-01   -92.93    6.31291E+01   -92.93
  -80.00     5.00     -34.26    2.11    2.11    0.00000    89.13  LINEAR    9.59113E-01   -92.93    6.31318E+01   -92.93
  -75.00     5.00     -30.79    2.11    2.11    0.00000    88.70  LINEAR    1.42964E+00   -92.93    6.31361E+01   -92.93
  -70.00     5.00     -28.37    2.11    2.12    0.00000    88.29  LINEAR    1.88939E+00   -92.93    6.31421E+01   -92.93
  -65.00     5.00     -26.53    2.11    2.12    0.00000    87.88  LINEAR    2.33491E+00   -92.93    6.31494E+01   -92.93
  -60.00     5.00     -25.07    2.12    2.12    0.00000    87.50  LINEAR    2.76280E+00   -92.93    6.31579E+01   -92.93
  -55.00     5.00     -23.87    2.12    2.13    0.00000    87.13  LINEAR    3.16983E+00   -92.93    6.31673E+01   -92.93
  -50.00     5.00     -22.88    2.12    2.13    0.00000    86.78  LINEAR    3.55288E+00   -92.93    6.31773E+01   -92.93
  -45.00     5.00     -22.05    2.12    2.14    0.00000    86.46  LINEAR    3.90903E+00   -92.93    6.31876E+01   -92.93
  -40.00     5.00     -21.35    2.12    2.14    0.00000    86.17  LINEAR    4.23554E+00   -92.93    6.31980E+01   -92.93
  -35.00     5.00     -20.77    2.12    2.14    0.00000    85.90  LINEAR    4.52990E+00   -92.93    6.32080E+01   -92.93
  -30.00     5.00     -20.29    2.12    2.15    0.00000    85.67  LINEAR    4.78982E+00   -92.93    6.32174E+01   -92.93
  -25.00     5.00     -19.89    2.12    2.15    0.00000    85.47  LINEAR    5.01328E+00   -92.93    6.32259E+01   -92.93
  -20.00     5.00     -19.58    2.13    2.16    0.00000    85.30  LINEAR    5.19856E+00   -92.93    6.32332E+01   -92.93
  -15.00     5.00     -19.34    2.13    2.16    0.00000    85.17  LINEAR    5.34419E+00   -92.93    6.32392E+01   -92.93
  -10.00     5.00     -19.17    2.13    2.16    0.00000    85.08  LINEAR    5.44903E+00   -92.93    6.32435E+01   -92.93
   -5.00     5.00     -19.07    2.13    2.16    0.00000    85.02  LINEAR    5.51227E+00   -92.93    6.32462E+01   -92.93
    0.00     5.00     -19.03    2.13    2.16    0.00000    85.00  LINEAR    5.53341E+00   -92.93    6.32471E+01   -92.93
 -180.00    10.00     -13.05    2.03    2.16    0.00000   -80.00  LINEAR    1.10247E+01    87.07    6.25242E+01   -92.93
 -175.00    10.00     -13.08    2.03    2.16    0.00000   -80.04  LINEAR    1.09821E+01    87.07    6.25206E+01   -92.93
 -170.00    10.00     -13.18    2.03    2.16    0.00000   -80.15  LINEAR    1.08548E+01    87.07    6.25101E+01   -92.93
 -165.00    10.00     -13.35    2.02    2.15    0.00000   -80.33  LINEAR    1.06437E+01    87.07    6.24929E+01   -92.93
 -160.00    10.00     -13.59    2.02    2.14    0.00000   -80.59  LINEAR    1.03508E+01    87.07    6.24696E+01   -92.93
 -155.00    10.00     -13.91    2.02    2.13    0.00000   -80.92  LINEAR    9.97845E+00    87.07    6.24408E+01   -92.93
 -150.00    10.00     -14.31    2.01    2.11    0.00000   -81.32  LINEAR    9.52985E+00    87.07    6.24075E+01   -92.93
 -145.00    10.00     -14.80    2.01    2.10    0.00000   -81.78  LINEAR    9.00873E+00    87.07    6.23706E+01   -92.93
 -140.00    10.00     -15.39    2.00    2.08    0.00000   -82.31  LINEAR    8.41937E+00    87.08    6.23314E+01   -92.92
 -135.00    10.00     -16.09    2.00    2.06    0.00000   -82.89  LINEAR    7.76656E+00    87.08    6.22909E+01   -92.92
 -130.00    10.00     -16.92    1.99    2.05    0.00000   -83.53  LINEAR    7.05552E+00    87.08    6.22505E+01   -92.92
 -125.00    10.00     -17.92    1.98    2.03    0.00000   -84.22  LINEAR    6.29186E+00    87.08    6.22113E+01   -92.92
 -120.00    10.00     -19.11    1.98    2.01    0.00000   -84.96  LINEAR    5.48153E+00    87.08    6.21745E+01   -92.92
 -115.00    10.00     -20.58    1.97    2.00    0.00000   -85.74  LINEAR    4.63071E+00    87.08    6.21413E+01   -92.92
